
T04B4 000:476 SEGGER J-Link V4.80g Log File (0001ms, 0270ms total)
T04B4 000:476 DLL Compiled: Feb 13 2014 20:50:02 (0001ms, 0270ms total)
T04B4 000:476 Logging started @ 2015-08-11 09:35 (0001ms, 0270ms total)
T04B4 000:477 JLINK_SetWarnOutHandler(...) (0000ms, 0270ms total)
T04B4 000:477 JLINK_OpenEx(...)
Firmware: J-Link ARM V8 compiled Nov 25 2013 19:20:08
Hardware: V8.00
S/N: 17935099
Feature(s): RDI,FlashDL,FlashBP,JFlash  returns O.K. (0263ms, 0533ms total)
T04B4 000:740 JLINK_SetErrorOutHandler(...) (0000ms, 0533ms total)
T04B4 000:740 JLINK_ExecCommand("ProjectFile = "F:\E electroic\T temp\标准工程\standard prj3\USER\JLinkSettings.ini"", ...)  returns 0x00 (0000ms, 0533ms total)
T04B4 000:740 JLINK_ExecCommand("Device = STM32F103RC", ...)Device "STM32F103RC" selected (256 KB flash, 48 KB RAM).  returns 0x00 (0001ms, 0534ms total)
T04B4 000:741 JLINK_ExecCommand("DisableConnectionTimeout", ...)  returns 0x01 (0000ms, 0534ms total)
T04B4 000:741 JLINK_GetHardwareVersion()  returns 0x13880 (0000ms, 0534ms total)
T04B4 000:741 JLINK_GetDLLVersion()  returns 48007 (0000ms, 0534ms total)
T04B4 000:741 JLINK_GetFirmwareString(...) (0000ms, 0534ms total)
T04B4 000:741 JLINK_GetDLLVersion()  returns 48007 (0001ms, 0535ms total)
T04B4 000:742 JLINK_GetCompileDateTime() (0000ms, 0535ms total)
T04B4 000:742 JLINK_GetFirmwareString(...) (0000ms, 0535ms total)
T04B4 000:742 JLINK_GetHardwareVersion()  returns 0x13880 (0000ms, 0535ms total)
T04B4 000:742 JLINK_TIF_Select(JLINKARM_TIF_SWD)  returns 0x00 (0003ms, 0538ms total)
T04B4 000:745 JLINK_SetSpeed(5000) (0000ms, 0538ms total)
T04B4 000:745 JLINK_GetId() >0x108 TIF>Found SWD-DP with ID 0x1BA01477 >0x0D TIF> >0x28 TIF> >0x0D TIF> >0x28 TIF> >0x0D TIF> >0x21 TIF> >0x0D TIF> >0x28 TIF> >0x0D TIF> >0x28 TIF> >0x0D TIF> >0x28 TIF> >0x0D TIF> >0x21 TIF> >0x0D TIF> >0x21 TIF> >0x0D TIF> >0x28 TIF> >0x0D TIF> >0x21 TIF> >0x0D TIF> >0x21 TIF> >0x108 TIF>Found SWD-DP with ID 0x1BA01477 >0x0D TIF> >0x21 TIF> >0x0D TIF> >0x28 TIF> >0x0D TIF> >0x28 TIF> >0x0D TIF> >0x21 TIF> >0x0D TIF> >0x28 TIF> >0x0D TIF> >0x21 TIF> >0x0D TIF> >0x21 TIF>
 >0x0D TIF> >0x21 TIF> >0x0D TIF> >0x21 TIF> >0x0D TIF> >0x28 TIF> >0x0D TIF> >0x28 TIF> >0x0D TIF> >0x21 TIF> >0x0D TIF> >0x28 TIF> >0x0D TIF> >0x28 TIF> >0x0D TIF> >0x28 TIF> >0x0D TIF> >0x21 TIF> >0x0D TIF> >0x21 TIF> >0x0D TIF> >0x28 TIF> >0x0D TIF> >0x21 TIF> >0x0D TIF> >0x21 TIF>Found Cortex-M3 r1p1, Little endian. -- CPU_WriteMem(4 bytes @ 0xE0002000) -- CPU_ReadMem(4 bytes @ 0xE000EDF0) -- CPU_ReadMem(4 bytes @ 0xE0002000)FPUnit: 6 code (BP) slots and 2 literal slots
 -- CPU_ReadMem(4 bytes @ 0xE000EDFC) -- CPU_ReadMem(4 bytes @ 0xE0001000) -- CPU_WriteMem(4 bytes @ 0xE0001000) -- CPU_ReadMem(4 bytes @ 0xE00FF010)TPIU fitted. -- CPU_ReadMem(4 bytes @ 0xE00FF014)ETM fitted. -- CPU_ReadMem(4 bytes @ 0xE00FF018) >0x0D TIF> >0x21 TIF>  returns 0x1BA01477 (0067ms, 0605ms total)
T04B4 000:812 JLINK_GetDeviceFamily()  returns 3 (0000ms, 0605ms total)
T04B4 000:812 JLINK_ReadMem (0xE00FFFF0, 0x0010 Bytes, ...) -- CPU is running -- CPU_ReadMem(16 bytes @ 0xE00FFFF0) -- Data:  0D 00 00 00 10 00 00 00 05 00 00 00 B1 00 00 00  returns 0x00 (0001ms, 0606ms total)
T04B4 000:813 JLINK_ReadMem (0xE00FFFD0, 0x0020 Bytes, ...) -- CPU is running -- CPU_ReadMem(32 bytes @ 0xE00FFFD0) -- Data:  00 00 00 00 00 00 00 00 00 00 00 00 00 00 00 00 ...  returns 0x00 (0001ms, 0607ms total)
T04B4 000:814 JLINK_ReadMem (0xE00FF000, 0x0018 Bytes, ...) -- CPU is running -- CPU_ReadMem(24 bytes @ 0xE00FF000) -- Data:  03 F0 F0 FF 03 20 F0 FF 03 30 F0 FF 03 10 F0 FF ...  returns 0x00 (0001ms, 0608ms total)
T04B4 000:815 JLINK_ReadMemU32(0xE000ED00, 0x0001 Items, ...) -- CPU is running -- CPU_ReadMem(4 bytes @ 0xE000ED00) -- Data:  31 C2 1F 41  returns 0x01 (0001ms, 0609ms total)
T04B4 000:816 JLINK_SetResetType(JLINKARM_RESET_TYPE_NORMAL)  returns JLINKARM_RESET_TYPE_NORMAL (0000ms, 0609ms total)
T04B4 000:816 JLINK_Reset() -- CPU is running -- CPU_WriteMem(4 bytes @ 0xE000EDF0) -- CPU is running -- CPU_WriteMem(4 bytes @ 0xE000EDFC) >0x35 TIF> -- CPU is running -- CPU_WriteMem(4 bytes @ 0xE000ED0C) -- CPU is running -- CPU_ReadMem(4 bytes @ 0xE000EDF0) -- CPU is running -- CPU_ReadMem(4 bytes @ 0xE000EDF0) -- CPU is running -- CPU_WriteMem(4 bytes @ 0xE000EDF0) -- CPU is running -- CPU_WriteMem(4 bytes @ 0xE000EDFC) -- CPU is running -- CPU_ReadMem(4 bytes @ 0xE000EDF0)
 -- CPU_WriteMem(4 bytes @ 0xE0002000) -- CPU_ReadMem(4 bytes @ 0xE000EDFC) -- CPU_ReadMem(4 bytes @ 0xE0001000) (0023ms, 0632ms total)
T04B4 000:839 JLINK_ReadReg(R15 (PC))  returns 0x08000BE8 (0000ms, 0632ms total)
T04B4 000:839 JLINK_ReadReg(XPSR)  returns 0x01000000 (0000ms, 0632ms total)
T04B4 000:839 JLINK_Halt()  returns 0x00 (0000ms, 0632ms total)
T04B4 000:839 JLINK_IsHalted()  returns TRUE (0000ms, 0632ms total)
T04B4 000:839 JLINK_ReadMemU32(0xE000EDF0, 0x0001 Items, ...) -- CPU_ReadMem(4 bytes @ 0xE000EDF0) -- Data:  03 00 03 00  returns 0x01 (0001ms, 0633ms total)
T04B4 000:840 JLINK_WriteU32(0xE000EDF0, 0xA05F0003) -- CPU_WriteMem(4 bytes @ 0xE000EDF0)  returns 0x00 (0001ms, 0634ms total)
T04B4 000:841 JLINK_WriteU32(0xE000EDFC, 0x01000000) -- CPU_WriteMem(4 bytes @ 0xE000EDFC)  returns 0x00 (0001ms, 0635ms total)
T04B4 000:842 JLINK_GetHWStatus(...)  returns 0x00 (0001ms, 0636ms total)
T04B4 000:843 JLINK_GetNumBPUnits(Type = 0xFFFFFF00)  returns 0x06 (0000ms, 0636ms total)
T04B4 000:843 JLINK_GetNumBPUnits(Type = 0xF0)  returns 0x2000 (0000ms, 0636ms total)
T04B4 000:843 JLINK_GetNumWPUnits()  returns 0x04 (0000ms, 0636ms total)
T04B4 000:844 JLINK_GetSpeed()  returns 0xFA0 (0000ms, 0636ms total)
T04B4 000:844 JLINK_ReadMemU32(0xE000E004, 0x0001 Items, ...) -- CPU_ReadMem(4 bytes @ 0xE000E004) -- Data:  01 00 00 00  returns 0x01 (0001ms, 0637ms total)
T04B4 000:845 JLINK_ReadMemU32(0xE000E004, 0x0001 Items, ...) -- CPU_ReadMem(4 bytes @ 0xE000E004) -- Data:  01 00 00 00  returns 0x01 (0001ms, 0638ms total)
T04B4 000:846 JLINK_WriteMem(0xE0001000, 0x001C Bytes, ...) -- Data:  01 00 00 00 00 00 00 00 00 00 00 00 00 00 00 00 ... -- CPU_WriteMem(28 bytes @ 0xE0001000)  returns 0x1C (0001ms, 0639ms total)
T04B4 000:847 JLINK_ReadMem (0xE0001000, 0x001C Bytes, ...) -- CPU_ReadMem(28 bytes @ 0xE0001000) -- Data:  01 00 00 40 00 00 00 00 00 00 00 00 00 00 00 00 ...  returns 0x00 (0001ms, 0640ms total)
T04B4 000:848 JLINK_ReadReg(R15 (PC))  returns 0x08000BE8 (0000ms, 0640ms total)
T04B4 000:848 JLINK_ReadReg(XPSR)  returns 0x01000000 (0000ms, 0640ms total)
T04B4 001:022 JLINK_SetResetType(JLINKARM_RESET_TYPE_NORMAL)  returns JLINKARM_RESET_TYPE_NORMAL (0000ms, 0640ms total)
T04B4 001:022 JLINK_Reset() -- CPU_WriteMem(4 bytes @ 0xE000EDF0) -- CPU_WriteMem(4 bytes @ 0xE000EDFC) >0x35 TIF> -- CPU_WriteMem(4 bytes @ 0xE000ED0C) -- CPU_ReadMem(4 bytes @ 0xE000EDF0) -- CPU_ReadMem(4 bytes @ 0xE000EDF0) -- CPU_WriteMem(4 bytes @ 0xE000EDF0) -- CPU_WriteMem(4 bytes @ 0xE000EDFC) -- CPU is running -- CPU_ReadMem(4 bytes @ 0xE000EDF0) -- CPU_WriteMem(4 bytes @ 0xE0002000) -- CPU_ReadMem(4 bytes @ 0xE000EDFC) -- CPU_ReadMem(4 bytes @ 0xE0001000) (0024ms, 0664ms total)
T04B4 001:046 JLINK_ReadReg(R15 (PC))  returns 0x08000BE8 (0000ms, 0664ms total)
T04B4 001:046 JLINK_ReadReg(XPSR)  returns 0x01000000 (0000ms, 0664ms total)
T04B4 001:110 JLINK_ReadMem (0x08000BE8, 0x0018 Bytes, ...) -- CPU_ReadMem(64 bytes @ 0x08000BC0) -- Updating C cache (64 bytes @ 0x08000BC0) -- Read from C cache (24 bytes @ 0x08000BE8) -- Data:  09 48 80 47 09 48 00 47 FE E7 FE E7 FE E7 FE E7 ...  returns 0x00 (0002ms, 0666ms total)
T04B4 001:112 JLINK_ReadMem (0x08000C00, 0x0024 Bytes, ...) -- CPU_ReadMem(64 bytes @ 0x08000C00) -- Updating C cache (64 bytes @ 0x08000C00) -- Read from C cache (36 bytes @ 0x08000C00) -- Data:  FE E7 FE E7 04 48 05 49 05 4A 06 4B 70 47 00 00 ...  returns 0x00 (0002ms, 0668ms total)
T04B4 001:148 JLINK_ReadMem (0x40021000, 0x0024 Bytes, ...) -- CPU_ReadMem(36 bytes @ 0x40021000) -- Data:  83 4D 00 00 00 00 00 00 00 00 00 00 00 00 00 00 ...  returns 0x00 (0001ms, 0669ms total)
T04B4 001:149 JLINK_ReadMem (0x40021024, 0x0004 Bytes, ...) -- CPU_ReadMem(4 bytes @ 0x40021024) -- Data:  00 00 00 1C  returns 0x00 (0001ms, 0670ms total)
T04B4 001:150 JLINK_ReadMem (0x40021000, 0x0004 Bytes, ...) -- CPU_ReadMem(4 bytes @ 0x40021000) -- Data:  83 4D 00 00  returns 0x00 (0002ms, 0672ms total)
T04B4 001:152 JLINK_ReadMem (0x40021000, 0x0004 Bytes, ...) -- CPU_ReadMem(4 bytes @ 0x40021000) -- Data:  83 4D 00 00  returns 0x00 (0001ms, 0673ms total)
T04B4 001:153 JLINK_ReadMem (0x40021000, 0x0004 Bytes, ...) -- CPU_ReadMem(4 bytes @ 0x40021000) -- Data:  83 4D 00 00  returns 0x00 (0001ms, 0674ms total)
T04B4 001:154 JLINK_ReadMem (0x40021000, 0x0004 Bytes, ...) -- CPU_ReadMem(4 bytes @ 0x40021000) -- Data:  83 4D 00 00  returns 0x00 (0001ms, 0675ms total)
T04B4 001:155 JLINK_ReadMem (0x40021000, 0x0004 Bytes, ...) -- CPU_ReadMem(4 bytes @ 0x40021000) -- Data:  83 4D 00 00  returns 0x00 (0001ms, 0676ms total)
T04B4 001:156 JLINK_ReadMem (0x40021000, 0x0004 Bytes, ...) -- CPU_ReadMem(4 bytes @ 0x40021000) -- Data:  83 4D 00 00  returns 0x00 (0000ms, 0676ms total)
T04B4 001:156 JLINK_ReadMem (0x40021000, 0x0004 Bytes, ...) -- CPU_ReadMem(4 bytes @ 0x40021000) -- Data:  83 4D 00 00  returns 0x00 (0002ms, 0678ms total)
T04B4 001:158 JLINK_ReadMem (0x40021000, 0x0004 Bytes, ...) -- CPU_ReadMem(4 bytes @ 0x40021000) -- Data:  83 4D 00 00  returns 0x00 (0001ms, 0679ms total)
T04B4 001:159 JLINK_ReadMem (0x40021000, 0x0004 Bytes, ...) -- CPU_ReadMem(4 bytes @ 0x40021000) -- Data:  83 4D 00 00  returns 0x00 (0001ms, 0680ms total)
T04B4 001:160 JLINK_ReadMem (0x40021000, 0x0004 Bytes, ...) -- CPU_ReadMem(4 bytes @ 0x40021000) -- Data:  83 4D 00 00  returns 0x00 (0001ms, 0681ms total)
T04B4 001:161 JLINK_ReadMem (0x40021000, 0x0004 Bytes, ...) -- CPU_ReadMem(4 bytes @ 0x40021000) -- Data:  83 4D 00 00  returns 0x00 (0001ms, 0682ms total)
T04B4 001:162 JLINK_ReadMem (0x40021014, 0x0004 Bytes, ...) -- CPU_ReadMem(4 bytes @ 0x40021014) -- Data:  14 00 00 00  returns 0x00 (0001ms, 0683ms total)
T04B4 001:163 JLINK_ReadMem (0x40021014, 0x0004 Bytes, ...) -- CPU_ReadMem(4 bytes @ 0x40021014) -- Data:  14 00 00 00  returns 0x00 (0001ms, 0684ms total)
T04B4 001:164 JLINK_ReadMem (0x40021014, 0x0004 Bytes, ...) -- CPU_ReadMem(4 bytes @ 0x40021014) -- Data:  14 00 00 00  returns 0x00 (0002ms, 0686ms total)
T04B4 001:166 JLINK_ReadMem (0x40021014, 0x0004 Bytes, ...) -- CPU_ReadMem(4 bytes @ 0x40021014) -- Data:  14 00 00 00  returns 0x00 (0001ms, 0687ms total)
T04B4 001:167 JLINK_ReadMem (0x40021014, 0x0004 Bytes, ...) -- CPU_ReadMem(4 bytes @ 0x40021014) -- Data:  14 00 00 00  returns 0x00 (0001ms, 0688ms total)
T04B4 001:168 JLINK_ReadMem (0x40021014, 0x0004 Bytes, ...) -- CPU_ReadMem(4 bytes @ 0x40021014) -- Data:  14 00 00 00  returns 0x00 (0001ms, 0689ms total)
T04B4 001:169 JLINK_ReadMem (0x40021014, 0x0004 Bytes, ...) -- CPU_ReadMem(4 bytes @ 0x40021014) -- Data:  14 00 00 00  returns 0x00 (0001ms, 0690ms total)
T04B4 001:170 JLINK_ReadMem (0x40021014, 0x0004 Bytes, ...) -- CPU_ReadMem(4 bytes @ 0x40021014) -- Data:  14 00 00 00  returns 0x00 (0001ms, 0691ms total)
T04B4 001:171 JLINK_ReadMem (0x40021020, 0x0004 Bytes, ...) -- CPU_ReadMem(4 bytes @ 0x40021020) -- Data:  03 81 00 00  returns 0x00 (0001ms, 0692ms total)
T04B4 001:172 JLINK_ReadMem (0x40021020, 0x0004 Bytes, ...) -- CPU_ReadMem(4 bytes @ 0x40021020) -- Data:  03 81 00 00  returns 0x00 (0002ms, 0694ms total)
T04B4 001:174 JLINK_ReadMem (0x40021020, 0x0004 Bytes, ...) -- CPU_ReadMem(4 bytes @ 0x40021020) -- Data:  03 81 00 00  returns 0x00 (0001ms, 0695ms total)
T04B4 001:175 JLINK_ReadMem (0x40021020, 0x0004 Bytes, ...) -- CPU_ReadMem(4 bytes @ 0x40021020) -- Data:  03 81 00 00  returns 0x00 (0001ms, 0696ms total)
T04B4 001:176 JLINK_ReadMem (0x40021020, 0x0004 Bytes, ...) -- CPU_ReadMem(4 bytes @ 0x40021020) -- Data:  03 81 00 00  returns 0x00 (0001ms, 0697ms total)
T04B4 001:177 JLINK_ReadMem (0x40021020, 0x0004 Bytes, ...) -- CPU_ReadMem(4 bytes @ 0x40021020) -- Data:  03 81 00 00  returns 0x00 (0001ms, 0698ms total)
T04B4 001:178 JLINK_ReadMem (0x40021020, 0x0004 Bytes, ...) -- CPU_ReadMem(4 bytes @ 0x40021020) -- Data:  03 81 00 00  returns 0x00 (0001ms, 0699ms total)
T04B4 001:179 JLINK_ReadMem (0x40021024, 0x0004 Bytes, ...) -- CPU_ReadMem(4 bytes @ 0x40021024) -- Data:  00 00 00 1C  returns 0x00 (0001ms, 0700ms total)
T04B4 001:180 JLINK_ReadMem (0x40021024, 0x0004 Bytes, ...) -- CPU_ReadMem(4 bytes @ 0x40021024) -- Data:  00 00 00 1C  returns 0x00 (0004ms, 0704ms total)
T04B4 001:184 JLINK_ReadMem (0x40021024, 0x0004 Bytes, ...) -- CPU_ReadMem(4 bytes @ 0x40021024) -- Data:  00 00 00 1C  returns 0x00 (0001ms, 0705ms total)
T04B4 001:185 JLINK_ReadMem (0x40021024, 0x0004 Bytes, ...) -- CPU_ReadMem(4 bytes @ 0x40021024) -- Data:  00 00 00 1C  returns 0x00 (0001ms, 0706ms total)
T04B4 001:186 JLINK_ReadMem (0x40021024, 0x0004 Bytes, ...) -- CPU_ReadMem(4 bytes @ 0x40021024) -- Data:  00 00 00 1C  returns 0x00 (0002ms, 0708ms total)
T04B4 001:188 JLINK_ReadMem (0x40021024, 0x0004 Bytes, ...) -- CPU_ReadMem(4 bytes @ 0x40021024) -- Data:  00 00 00 1C  returns 0x00 (0002ms, 0710ms total)
T04B4 001:191 JLINK_ReadMem (0x40021024, 0x0004 Bytes, ...) -- CPU_ReadMem(4 bytes @ 0x40021024) -- Data:  00 00 00 1C  returns 0x00 (0000ms, 0710ms total)
T04B4 001:192 JLINK_ReadMem (0x40021024, 0x0004 Bytes, ...) -- CPU_ReadMem(4 bytes @ 0x40021024) -- Data:  00 00 00 1C  returns 0x00 (0000ms, 0710ms total)
T04B4 001:192 JLINK_ReadMem (0x40021024, 0x0004 Bytes, ...) -- CPU_ReadMem(4 bytes @ 0x40021024) -- Data:  00 00 00 1C  returns 0x00 (0002ms, 0712ms total)
T04B4 001:194 JLINK_ReadMem (0x40021024, 0x0004 Bytes, ...) -- CPU_ReadMem(4 bytes @ 0x40021024) -- Data:  00 00 00 1C  returns 0x00 (0001ms, 0713ms total)
T04B4 001:218 JLINK_ReadMem (0x40000C00, 0x002C Bytes, ...) -- CPU_ReadMem(44 bytes @ 0x40000C00) -- Data:  00 00 00 00 00 00 00 00 00 00 00 00 00 00 00 00 ...  returns 0x00 (0001ms, 0714ms total)
T04B4 001:219 JLINK_ReadMem (0x40000C2C, 0x0004 Bytes, ...) -- CPU_ReadMem(4 bytes @ 0x40000C2C) -- Data:  00 00 00 00  returns 0x00 (0001ms, 0715ms total)
T04B4 001:220 JLINK_ReadMem (0x40000C34, 0x000C Bytes, ...) -- CPU_ReadMem(12 bytes @ 0x40000C34) -- Data:  00 00 00 00 00 00 00 00 00 00 00 00  returns 0x00 (0001ms, 0716ms total)
T04B4 001:221 JLINK_ReadMem (0x40000C40, 0x0004 Bytes, ...) -- CPU_ReadMem(4 bytes @ 0x40000C40) -- Data:  00 00 00 00  returns 0x00 (0001ms, 0717ms total)
T04B4 001:222 JLINK_ReadMem (0x40000C48, 0x0004 Bytes, ...) -- CPU_ReadMem(4 bytes @ 0x40000C48) -- Data:  00 00 00 00  returns 0x00 (0001ms, 0718ms total)
T04B4 001:223 JLINK_ReadMem (0x40000C4C, 0x0004 Bytes, ...) -- CPU_ReadMem(4 bytes @ 0x40000C4C) -- Data:  00 00 00 00  returns 0x00 (0001ms, 0719ms total)
T04B4 002:668 JLINK_ReadMem (0x200000B2, 0x0002 Bytes, ...) -- CPU_ReadMem(64 bytes @ 0x20000080) -- Updating C cache (64 bytes @ 0x20000080) -- Read from C cache (2 bytes @ 0x200000B2) -- Data:  00 00  returns 0x00 (0002ms, 0721ms total)
T0F8C 002:704 JLINK_SetBPEx(Addr = 0x080002C0, Type = 0xFFFFFFF2)  returns 0x00000001 (0001ms, 0722ms total)
T0F8C 002:705 JLINK_SetBPEx(Addr = 0x080066CC, Type = 0xFFFFFFF2)  returns 0x00000002 (0000ms, 0722ms total)
T0F8C 002:705 JLINK_SetBPEx(Addr = 0x08006C90, Type = 0xFFFFFFF2)  returns 0x00000003 (0000ms, 0722ms total)
T0F8C 002:705 JLINK_SetBPEx(Addr = 0x08000302, Type = 0xFFFFFFF2)  returns 0x00000004 (0000ms, 0722ms total)
T0F8C 002:705 JLINK_Go() -- CPU_WriteMem(4 bytes @ 0xE0002000) -- CPU_WriteMem(4 bytes @ 0xE0002008) -- CPU_WriteMem(4 bytes @ 0xE0002000) -- CPU_WriteMem(4 bytes @ 0xE000200C) -- CPU_WriteMem(4 bytes @ 0xE0002000) -- CPU_WriteMem(4 bytes @ 0xE0002010) -- CPU_WriteMem(4 bytes @ 0xE0002000) -- CPU_WriteMem(4 bytes @ 0xE0002014) -- CPU_WriteMem(4 bytes @ 0xE0002018) -- CPU_WriteMem(4 bytes @ 0xE000201C) -- CPU_WriteMem(4 bytes @ 0xE0001004) (0010ms, 0732ms total)
T0F8C 002:816 JLINK_IsHalted()  returns TRUE (0003ms, 0735ms total)
T0F8C 002:819 JLINK_Halt()  returns 0x00 (0000ms, 0732ms total)
T0F8C 002:819 JLINK_IsHalted()  returns TRUE (0000ms, 0732ms total)
T0F8C 002:819 JLINK_IsHalted()  returns TRUE (0000ms, 0732ms total)
T0F8C 002:819 JLINK_IsHalted()  returns TRUE (0000ms, 0732ms total)
T0F8C 002:819 JLINK_ReadReg(R15 (PC))  returns 0x080002C0 (0000ms, 0732ms total)
T0F8C 002:819 JLINK_ReadReg(XPSR)  returns 0x61000000 (0000ms, 0732ms total)
T0F8C 002:819 JLINK_ClrBPEx(BPHandle = 0x00000001)  returns 0x00 (0000ms, 0732ms total)
T0F8C 002:819 JLINK_ClrBPEx(BPHandle = 0x00000002)  returns 0x00 (0000ms, 0732ms total)
T0F8C 002:819 JLINK_ClrBPEx(BPHandle = 0x00000003)  returns 0x00 (0000ms, 0732ms total)
T0F8C 002:819 JLINK_ClrBPEx(BPHandle = 0x00000004)  returns 0x00 (0000ms, 0732ms total)
T0F8C 002:819 JLINK_ReadMemU32(0xE000ED30, 0x0001 Items, ...) -- CPU_ReadMem(4 bytes @ 0xE000ED30) -- Data:  03 00 00 00  returns 0x01 (0001ms, 0733ms total)
T0F8C 002:820 JLINK_ReadMemU32(0xE0001028, 0x0001 Items, ...) -- CPU_ReadMem(4 bytes @ 0xE0001028) -- Data:  00 00 00 00  returns 0x01 (0001ms, 0734ms total)
T0F8C 002:821 JLINK_ReadMemU32(0xE0001038, 0x0001 Items, ...) -- CPU_ReadMem(4 bytes @ 0xE0001038) -- Data:  00 02 00 00  returns 0x01 (0001ms, 0735ms total)
T0F8C 002:822 JLINK_ReadMemU32(0xE0001048, 0x0001 Items, ...) -- CPU_ReadMem(4 bytes @ 0xE0001048) -- Data:  00 00 00 00  returns 0x01 (0001ms, 0736ms total)
T0F8C 002:823 JLINK_ReadMemU32(0xE0001058, 0x0001 Items, ...) -- CPU_ReadMem(4 bytes @ 0xE0001058) -- Data:  00 00 00 00  returns 0x01 (0000ms, 0736ms total)
T0F8C 002:824 JLINK_ReadReg(R0)  returns 0x20000568 (0000ms, 0736ms total)
T0F8C 002:824 JLINK_ReadReg(R1)  returns 0x20000768 (0000ms, 0736ms total)
T0F8C 002:824 JLINK_ReadReg(R2)  returns 0x20000768 (0000ms, 0736ms total)
T0F8C 002:824 JLINK_ReadReg(R3)  returns 0x20000768 (0000ms, 0736ms total)
T0F8C 002:824 JLINK_ReadReg(R4)  returns 0x00000000 (0000ms, 0736ms total)
T0F8C 002:824 JLINK_ReadReg(R5)  returns 0x20000508 (0000ms, 0736ms total)
T0F8C 002:824 JLINK_ReadReg(R6)  returns 0x00000000 (0000ms, 0736ms total)
T0F8C 002:824 JLINK_ReadReg(R7)  returns 0x00000000 (0000ms, 0736ms total)
T0F8C 002:824 JLINK_ReadReg(R8)  returns 0x00000000 (0000ms, 0736ms total)
T0F8C 002:824 JLINK_ReadReg(R9)  returns 0x00000001 (0000ms, 0736ms total)
T0F8C 002:824 JLINK_ReadReg(R10)  returns 0x0800BCB4 (0000ms, 0736ms total)
T0F8C 002:824 JLINK_ReadReg(R11)  returns 0x00000000 (0000ms, 0736ms total)
T0F8C 002:824 JLINK_ReadReg(R12)  returns 0x20000578 (0000ms, 0736ms total)
T0F8C 002:824 JLINK_ReadReg(R13 (SP))  returns 0x20000B68 (0000ms, 0736ms total)
T0F8C 002:824 JLINK_ReadReg(R14)  returns 0x080002AF (0000ms, 0736ms total)
T0F8C 002:824 JLINK_ReadReg(R15 (PC))  returns 0x080002C0 (0000ms, 0736ms total)
T0F8C 002:824 JLINK_ReadReg(XPSR)  returns 0x61000000 (0000ms, 0736ms total)
T0F8C 002:824 JLINK_ReadReg(MSP)  returns 0x20000B68 (0000ms, 0736ms total)
T0F8C 002:824 JLINK_ReadReg(PSP)  returns 0x20000800 (0000ms, 0736ms total)
T0F8C 002:824 JLINK_ReadReg(CFBP)  returns 0x00000000 (0000ms, 0736ms total)
T04B4 002:826 JLINK_ReadMemU32(0xE0001004, 0x0001 Items, ...) -- CPU_ReadMem(4 bytes @ 0xE0001004) -- Data:  45 27 00 00  returns 0x01 (0001ms, 0737ms total)
T04B4 002:827 JLINK_ReadMem (0x200000B2, 0x0002 Bytes, ...) -- CPU_ReadMem(64 bytes @ 0x20000080) -- Updating C cache (64 bytes @ 0x20000080) -- Read from C cache (2 bytes @ 0x200000B2) -- Data:  00 00  returns 0x00 (0002ms, 0739ms total)
T04B4 002:829 JLINK_ReadMem (0x40000C00, 0x002C Bytes, ...) -- CPU_ReadMem(44 bytes @ 0x40000C00) -- Data:  00 00 00 00 00 00 00 00 00 00 00 00 00 00 00 00 ...  returns 0x00 (0002ms, 0741ms total)
T04B4 002:831 JLINK_ReadMem (0x40000C2C, 0x0004 Bytes, ...) -- CPU_ReadMem(4 bytes @ 0x40000C2C) -- Data:  00 00 00 00  returns 0x00 (0001ms, 0742ms total)
T04B4 002:832 JLINK_ReadMem (0x40000C34, 0x000C Bytes, ...) -- CPU_ReadMem(12 bytes @ 0x40000C34) -- Data:  00 00 00 00 00 00 00 00 00 00 00 00  returns 0x00 (0001ms, 0743ms total)
T04B4 002:833 JLINK_ReadMem (0x40000C40, 0x0004 Bytes, ...) -- CPU_ReadMem(4 bytes @ 0x40000C40) -- Data:  00 00 00 00  returns 0x00 (0001ms, 0744ms total)
T04B4 002:834 JLINK_ReadMem (0x40000C48, 0x0004 Bytes, ...) -- CPU_ReadMem(4 bytes @ 0x40000C48) -- Data:  00 00 00 00  returns 0x00 (0001ms, 0745ms total)
T04B4 002:835 JLINK_ReadMem (0x40000C4C, 0x0004 Bytes, ...) -- CPU_ReadMem(4 bytes @ 0x40000C4C) -- Data:  00 00 00 00  returns 0x00 (0001ms, 0746ms total)
T04B4 002:836 JLINK_ReadMem (0x40021000, 0x0024 Bytes, ...) -- CPU_ReadMem(36 bytes @ 0x40021000) -- Data:  83 4D 03 03 0A 04 1D 00 00 00 00 00 00 00 00 00 ...  returns 0x00 (0001ms, 0747ms total)
T04B4 002:837 JLINK_ReadMem (0x40021024, 0x0004 Bytes, ...) -- CPU_ReadMem(4 bytes @ 0x40021024) -- Data:  00 00 00 1C  returns 0x00 (0001ms, 0748ms total)
T04B4 002:839 JLINK_ReadMem (0x40021000, 0x0004 Bytes, ...) -- CPU_ReadMem(4 bytes @ 0x40021000) -- Data:  83 4D 03 03  returns 0x00 (0001ms, 0749ms total)
T04B4 002:840 JLINK_ReadMem (0x40021000, 0x0004 Bytes, ...) -- CPU_ReadMem(4 bytes @ 0x40021000) -- Data:  83 4D 03 03  returns 0x00 (0001ms, 0750ms total)
T04B4 002:841 JLINK_ReadMem (0x40021000, 0x0004 Bytes, ...) -- CPU_ReadMem(4 bytes @ 0x40021000) -- Data:  83 4D 03 03  returns 0x00 (0001ms, 0751ms total)
T04B4 002:842 JLINK_ReadMem (0x40021000, 0x0004 Bytes, ...) -- CPU_ReadMem(4 bytes @ 0x40021000) -- Data:  83 4D 03 03  returns 0x00 (0001ms, 0752ms total)
T04B4 002:843 JLINK_ReadMem (0x40021000, 0x0004 Bytes, ...) -- CPU_ReadMem(4 bytes @ 0x40021000) -- Data:  83 4D 03 03  returns 0x00 (0001ms, 0753ms total)
T04B4 002:844 JLINK_ReadMem (0x40021000, 0x0004 Bytes, ...) -- CPU_ReadMem(4 bytes @ 0x40021000) -- Data:  83 4D 03 03  returns 0x00 (0001ms, 0754ms total)
T04B4 002:845 JLINK_ReadMem (0x40021000, 0x0004 Bytes, ...) -- CPU_ReadMem(4 bytes @ 0x40021000) -- Data:  83 4D 03 03  returns 0x00 (0001ms, 0755ms total)
T04B4 002:846 JLINK_ReadMem (0x40021000, 0x0004 Bytes, ...) -- CPU_ReadMem(4 bytes @ 0x40021000) -- Data:  83 4D 03 03  returns 0x00 (0002ms, 0757ms total)
T04B4 002:848 JLINK_ReadMem (0x40021000, 0x0004 Bytes, ...) -- CPU_ReadMem(4 bytes @ 0x40021000) -- Data:  83 4D 03 03  returns 0x00 (0001ms, 0758ms total)
T04B4 002:849 JLINK_ReadMem (0x40021000, 0x0004 Bytes, ...) -- CPU_ReadMem(4 bytes @ 0x40021000) -- Data:  83 4D 03 03  returns 0x00 (0001ms, 0759ms total)
T04B4 002:850 JLINK_ReadMem (0x40021000, 0x0004 Bytes, ...) -- CPU_ReadMem(4 bytes @ 0x40021000) -- Data:  83 4D 03 03  returns 0x00 (0001ms, 0760ms total)
T04B4 002:855 JLINK_ReadMem (0x40021004, 0x0004 Bytes, ...) -- CPU_ReadMem(4 bytes @ 0x40021004) -- Data:  0A 04 1D 00  returns 0x00 (0001ms, 0761ms total)
T04B4 002:856 JLINK_ReadMem (0x40021004, 0x0004 Bytes, ...) -- CPU_ReadMem(4 bytes @ 0x40021004) -- Data:  0A 04 1D 00  returns 0x00 (0001ms, 0762ms total)
T04B4 002:857 JLINK_ReadMem (0x40021004, 0x0004 Bytes, ...) -- CPU_ReadMem(4 bytes @ 0x40021004) -- Data:  0A 04 1D 00  returns 0x00 (0001ms, 0763ms total)
T04B4 002:858 JLINK_ReadMem (0x40021004, 0x0004 Bytes, ...) -- CPU_ReadMem(4 bytes @ 0x40021004) -- Data:  0A 04 1D 00  returns 0x00 (0001ms, 0764ms total)
T04B4 002:859 JLINK_ReadMem (0x40021004, 0x0004 Bytes, ...) -- CPU_ReadMem(4 bytes @ 0x40021004) -- Data:  0A 04 1D 00  returns 0x00 (0001ms, 0765ms total)
T04B4 002:860 JLINK_ReadMem (0x40021004, 0x0004 Bytes, ...) -- CPU_ReadMem(4 bytes @ 0x40021004) -- Data:  0A 04 1D 00  returns 0x00 (0002ms, 0767ms total)
T04B4 002:862 JLINK_ReadMem (0x40021004, 0x0004 Bytes, ...) -- CPU_ReadMem(4 bytes @ 0x40021004) -- Data:  0A 04 1D 00  returns 0x00 (0001ms, 0768ms total)
T04B4 002:863 JLINK_ReadMem (0x40021004, 0x0004 Bytes, ...) -- CPU_ReadMem(4 bytes @ 0x40021004) -- Data:  0A 04 1D 00  returns 0x00 (0001ms, 0769ms total)
T04B4 002:864 JLINK_ReadMem (0x40021004, 0x0004 Bytes, ...) -- CPU_ReadMem(4 bytes @ 0x40021004) -- Data:  0A 04 1D 00  returns 0x00 (0000ms, 0769ms total)
T04B4 002:864 JLINK_ReadMem (0x40021004, 0x0004 Bytes, ...) -- CPU_ReadMem(4 bytes @ 0x40021004) -- Data:  0A 04 1D 00  returns 0x00 (0001ms, 0770ms total)
T04B4 002:865 JLINK_ReadMem (0x40021004, 0x0004 Bytes, ...) -- CPU_ReadMem(4 bytes @ 0x40021004) -- Data:  0A 04 1D 00  returns 0x00 (0001ms, 0771ms total)
T04B4 002:866 JLINK_ReadMem (0x40021004, 0x0004 Bytes, ...) -- CPU_ReadMem(4 bytes @ 0x40021004) -- Data:  0A 04 1D 00  returns 0x00 (0001ms, 0772ms total)
T0F8C 006:417 JLINK_SetBPEx(Addr = 0x080066CC, Type = 0xFFFFFFF2)  returns 0x00000005 (0001ms, 0773ms total)
T0F8C 006:418 JLINK_SetBPEx(Addr = 0x08006C90, Type = 0xFFFFFFF2)  returns 0x00000006 (0000ms, 0773ms total)
T0F8C 006:418 JLINK_SetBPEx(Addr = 0x08000302, Type = 0xFFFFFFF2)  returns 0x00000007 (0000ms, 0773ms total)
T0F8C 006:418 JLINK_Go() -- CPU_WriteMem(4 bytes @ 0xE0002000) -- CPU_WriteMem(4 bytes @ 0xE0002000) -- CPU_WriteMem(4 bytes @ 0xE0002000) -- CPU_WriteMem(4 bytes @ 0xE0002008) -- CPU_WriteMem(4 bytes @ 0xE000200C) -- CPU_WriteMem(4 bytes @ 0xE0002010) -- CPU_WriteMem(4 bytes @ 0xE0002014) (0006ms, 0779ms total)
T0F8C 006:525 JLINK_IsHalted()  returns FALSE (0001ms, 0780ms total)
T0F8C 006:626 JLINK_IsHalted()  returns FALSE (0001ms, 0780ms total)
T0F8C 006:728 JLINK_IsHalted()  returns FALSE (0001ms, 0780ms total)
T0F8C 006:829 JLINK_IsHalted()  returns FALSE (0001ms, 0780ms total)
T0F8C 006:931 JLINK_IsHalted()  returns FALSE (0001ms, 0780ms total)
T0F8C 007:033 JLINK_ReadMemU32(0xE0001004, 0x0001 Items, ...) -- CPU is running -- CPU_ReadMem(4 bytes @ 0xE0001004) -- Data:  88 69 9E 02  returns 0x01 (0001ms, 0780ms total)
T04B4 007:034 JLINK_ReadMem (0x200000B2, 0x0002 Bytes, ...) -- CPU is running -- CPU_ReadMem(2 bytes @ 0x200000B2) -- Data:  00 00  returns 0x00 (0001ms, 0781ms total)
T04B4 007:035 JLINK_ReadMem (0x40000C00, 0x002C Bytes, ...) -- CPU is running -- CPU_ReadMem(44 bytes @ 0x40000C00) -- Data:  00 00 00 00 00 00 00 00 00 00 00 00 00 00 00 00 ...  returns 0x00 (0002ms, 0783ms total)
T04B4 007:037 JLINK_ReadMem (0x40000C2C, 0x0004 Bytes, ...) -- CPU is running -- CPU_ReadMem(4 bytes @ 0x40000C2C) -- Data:  00 00 00 00  returns 0x00 (0001ms, 0784ms total)
T04B4 007:038 JLINK_ReadMem (0x40000C34, 0x000C Bytes, ...) -- CPU is running -- CPU_ReadMem(12 bytes @ 0x40000C34) -- Data:  00 00 00 00 00 00 00 00 00 00 00 00  returns 0x00 (0001ms, 0785ms total)
T04B4 007:039 JLINK_ReadMem (0x40000C40, 0x0004 Bytes, ...) -- CPU is running -- CPU_ReadMem(4 bytes @ 0x40000C40) -- Data:  00 00 00 00  returns 0x00 (0001ms, 0786ms total)
T04B4 007:040 JLINK_ReadMem (0x40000C48, 0x0004 Bytes, ...) -- CPU is running -- CPU_ReadMem(4 bytes @ 0x40000C48) -- Data:  00 00 00 00  returns 0x00 (0001ms, 0787ms total)
T04B4 007:041 JLINK_ReadMem (0x40000C4C, 0x0004 Bytes, ...) -- CPU is running -- CPU_ReadMem(4 bytes @ 0x40000C4C) -- Data:  00 00 00 00  returns 0x00 (0001ms, 0788ms total)
T04B4 007:043 JLINK_ReadMem (0x40021000, 0x0024 Bytes, ...) -- CPU is running -- CPU_ReadMem(36 bytes @ 0x40021000) -- Data:  83 4D 03 03 0A 84 1D 00 00 00 00 00 00 00 00 00 ...  returns 0x00 (0001ms, 0789ms total)
T04B4 007:044 JLINK_ReadMem (0x40021024, 0x0004 Bytes, ...) -- CPU is running -- CPU_ReadMem(4 bytes @ 0x40021024) -- Data:  00 00 00 1C  returns 0x00 (0001ms, 0790ms total)
T04B4 007:045 JLINK_ReadMem (0x40021004, 0x0004 Bytes, ...) -- CPU is running -- CPU_ReadMem(4 bytes @ 0x40021004) -- Data:  0A 84 1D 00  returns 0x00 (0001ms, 0791ms total)
T04B4 007:046 JLINK_ReadMem (0x40021004, 0x0004 Bytes, ...) -- CPU is running -- CPU_ReadMem(4 bytes @ 0x40021004) -- Data:  0A 84 1D 00  returns 0x00 (0001ms, 0792ms total)
T04B4 007:048 JLINK_ReadMem (0x40021004, 0x0004 Bytes, ...) -- CPU is running -- CPU_ReadMem(4 bytes @ 0x40021004) -- Data:  0A 84 1D 00  returns 0x00 (0001ms, 0793ms total)
T04B4 007:049 JLINK_ReadMem (0x40021004, 0x0004 Bytes, ...) -- CPU is running -- CPU_ReadMem(4 bytes @ 0x40021004) -- Data:  0A 84 1D 00  returns 0x00 (0001ms, 0794ms total)
T04B4 007:050 JLINK_ReadMem (0x40021004, 0x0004 Bytes, ...) -- CPU is running -- CPU_ReadMem(4 bytes @ 0x40021004) -- Data:  0A 84 1D 00  returns 0x00 (0001ms, 0795ms total)
T04B4 007:051 JLINK_ReadMem (0x40021004, 0x0004 Bytes, ...) -- CPU is running -- CPU_ReadMem(4 bytes @ 0x40021004) -- Data:  0A 84 1D 00  returns 0x00 (0001ms, 0796ms total)
T04B4 007:052 JLINK_ReadMem (0x40021004, 0x0004 Bytes, ...) -- CPU is running -- CPU_ReadMem(4 bytes @ 0x40021004) -- Data:  0A 84 1D 00  returns 0x00 (0001ms, 0797ms total)
T04B4 007:053 JLINK_ReadMem (0x40021004, 0x0004 Bytes, ...) -- CPU is running -- CPU_ReadMem(4 bytes @ 0x40021004) -- Data:  0A 84 1D 00  returns 0x00 (0001ms, 0798ms total)
T04B4 007:054 JLINK_ReadMem (0x40021004, 0x0004 Bytes, ...) -- CPU is running -- CPU_ReadMem(4 bytes @ 0x40021004) -- Data:  0A 84 1D 00  returns 0x00 (0001ms, 0799ms total)
T04B4 007:055 JLINK_ReadMem (0x40021004, 0x0004 Bytes, ...) -- CPU is running -- CPU_ReadMem(4 bytes @ 0x40021004) -- Data:  0A 84 1D 00  returns 0x00 (0002ms, 0801ms total)
T04B4 007:057 JLINK_ReadMem (0x40021004, 0x0004 Bytes, ...) -- CPU is running -- CPU_ReadMem(4 bytes @ 0x40021004) -- Data:  0A 84 1D 00  returns 0x00 (0001ms, 0802ms total)
T04B4 007:058 JLINK_ReadMem (0x40021004, 0x0004 Bytes, ...) -- CPU is running -- CPU_ReadMem(4 bytes @ 0x40021004) -- Data:  0A 84 1D 00  returns 0x00 (0001ms, 0803ms total)
T04B4 007:062 JLINK_ReadMem (0x40021014, 0x0004 Bytes, ...) -- CPU is running -- CPU_ReadMem(4 bytes @ 0x40021014) -- Data:  15 00 00 00  returns 0x00 (0001ms, 0804ms total)
T04B4 007:063 JLINK_ReadMem (0x40021014, 0x0004 Bytes, ...) -- CPU is running -- CPU_ReadMem(4 bytes @ 0x40021014) -- Data:  15 00 00 00  returns 0x00 (0002ms, 0806ms total)
T04B4 007:065 JLINK_ReadMem (0x40021014, 0x0004 Bytes, ...) -- CPU is running -- CPU_ReadMem(4 bytes @ 0x40021014) -- Data:  15 00 00 00  returns 0x00 (0001ms, 0807ms total)
T04B4 007:066 JLINK_ReadMem (0x40021014, 0x0004 Bytes, ...) -- CPU is running -- CPU_ReadMem(4 bytes @ 0x40021014) -- Data:  15 00 00 00  returns 0x00 (0002ms, 0809ms total)
T04B4 007:068 JLINK_ReadMem (0x40021014, 0x0004 Bytes, ...) -- CPU is running -- CPU_ReadMem(4 bytes @ 0x40021014) -- Data:  15 00 00 00  returns 0x00 (0001ms, 0810ms total)
T04B4 007:069 JLINK_ReadMem (0x40021014, 0x0004 Bytes, ...) -- CPU is running -- CPU_ReadMem(4 bytes @ 0x40021014) -- Data:  15 00 00 00  returns 0x00 (0001ms, 0811ms total)
T04B4 007:070 JLINK_ReadMem (0x40021014, 0x0004 Bytes, ...) -- CPU is running -- CPU_ReadMem(4 bytes @ 0x40021014) -- Data:  15 00 00 00  returns 0x00 (0001ms, 0812ms total)
T04B4 007:071 JLINK_ReadMem (0x40021014, 0x0004 Bytes, ...) -- CPU is running -- CPU_ReadMem(4 bytes @ 0x40021014) -- Data:  15 00 00 00  returns 0x00 (0001ms, 0813ms total)
T04B4 007:074 JLINK_ReadMem (0x40021018, 0x0004 Bytes, ...) -- CPU is running -- CPU_ReadMem(4 bytes @ 0x40021018) -- Data:  3D 42 00 00  returns 0x00 (0001ms, 0814ms total)
T04B4 007:076 JLINK_ReadMem (0x40021018, 0x0004 Bytes, ...) -- CPU is running -- CPU_ReadMem(4 bytes @ 0x40021018) -- Data:  3D 42 00 00  returns 0x00 (0001ms, 0816ms total)
T04B4 007:077 JLINK_ReadMem (0x40021018, 0x0004 Bytes, ...) -- CPU is running -- CPU_ReadMem(4 bytes @ 0x40021018) -- Data:  3D 42 00 00  returns 0x00 (0001ms, 0817ms total)
T04B4 007:078 JLINK_ReadMem (0x40021018, 0x0004 Bytes, ...) -- CPU is running -- CPU_ReadMem(4 bytes @ 0x40021018) -- Data:  3D 42 00 00  returns 0x00 (0001ms, 0818ms total)
T04B4 007:079 JLINK_ReadMem (0x40021018, 0x0004 Bytes, ...) -- CPU is running -- CPU_ReadMem(4 bytes @ 0x40021018) -- Data:  3D 42 00 00  returns 0x00 (0001ms, 0819ms total)
T04B4 007:080 JLINK_ReadMem (0x40021018, 0x0004 Bytes, ...) -- CPU is running -- CPU_ReadMem(4 bytes @ 0x40021018) -- Data:  3D 42 00 00  returns 0x00 (0001ms, 0820ms total)
T04B4 007:081 JLINK_ReadMem (0x40021018, 0x0004 Bytes, ...) -- CPU is running -- CPU_ReadMem(4 bytes @ 0x40021018) -- Data:  3D 42 00 00  returns 0x00 (0001ms, 0821ms total)
T04B4 007:082 JLINK_ReadMem (0x40021018, 0x0004 Bytes, ...) -- CPU is running -- CPU_ReadMem(4 bytes @ 0x40021018) -- Data:  3D 42 00 00  returns 0x00 (0001ms, 0822ms total)
T04B4 007:083 JLINK_ReadMem (0x40021018, 0x0004 Bytes, ...) -- CPU is running -- CPU_ReadMem(4 bytes @ 0x40021018) -- Data:  3D 42 00 00  returns 0x00 (0001ms, 0823ms total)
T04B4 007:084 JLINK_ReadMem (0x40021018, 0x0004 Bytes, ...) -- CPU is running -- CPU_ReadMem(4 bytes @ 0x40021018) -- Data:  3D 42 00 00  returns 0x00 (0002ms, 0825ms total)
T04B4 007:086 JLINK_ReadMem (0x40021018, 0x0004 Bytes, ...) -- CPU is running -- CPU_ReadMem(4 bytes @ 0x40021018) -- Data:  3D 42 00 00  returns 0x00 (0001ms, 0826ms total)
T04B4 007:087 JLINK_ReadMem (0x40021018, 0x0004 Bytes, ...) -- CPU is running -- CPU_ReadMem(4 bytes @ 0x40021018) -- Data:  3D 42 00 00  returns 0x00 (0001ms, 0827ms total)
T04B4 007:088 JLINK_ReadMem (0x40021018, 0x0004 Bytes, ...) -- CPU is running -- CPU_ReadMem(4 bytes @ 0x40021018) -- Data:  3D 42 00 00  returns 0x00 (0001ms, 0828ms total)
T04B4 007:089 JLINK_ReadMem (0x40021018, 0x0004 Bytes, ...) -- CPU is running -- CPU_ReadMem(4 bytes @ 0x40021018) -- Data:  3D 42 00 00  returns 0x00 (0001ms, 0829ms total)
T04B4 007:090 JLINK_ReadMem (0x40021018, 0x0004 Bytes, ...) -- CPU is running -- CPU_ReadMem(4 bytes @ 0x40021018) -- Data:  3D 42 00 00  returns 0x00 (0001ms, 0830ms total)
T04B4 007:091 JLINK_ReadMem (0x40021018, 0x0004 Bytes, ...) -- CPU is running -- CPU_ReadMem(4 bytes @ 0x40021018) -- Data:  3D 42 00 00  returns 0x00 (0001ms, 0831ms total)
T04B4 007:092 JLINK_ReadMem (0x40021018, 0x0004 Bytes, ...) -- CPU is running -- CPU_ReadMem(4 bytes @ 0x40021018) -- Data:  3D 42 00 00  returns 0x00 (0001ms, 0832ms total)
T04B4 007:093 JLINK_ReadMem (0x40021018, 0x0004 Bytes, ...) -- CPU is running -- CPU_ReadMem(4 bytes @ 0x40021018) -- Data:  3D 42 00 00  returns 0x00 (0001ms, 0833ms total)
T04B4 007:095 JLINK_ReadMem (0x40021018, 0x0004 Bytes, ...) -- CPU is running -- CPU_ReadMem(4 bytes @ 0x40021018) -- Data:  3D 42 00 00  returns 0x00 (0001ms, 0834ms total)
T04B4 007:099 JLINK_ReadMem (0x4002101C, 0x0004 Bytes, ...) -- CPU is running -- CPU_ReadMem(4 bytes @ 0x4002101C) -- Data:  06 00 02 00  returns 0x00 (0001ms, 0835ms total)
T04B4 007:100 JLINK_ReadMem (0x4002101C, 0x0004 Bytes, ...) -- CPU is running -- CPU_ReadMem(4 bytes @ 0x4002101C) -- Data:  06 00 02 00  returns 0x00 (0001ms, 0836ms total)
T04B4 007:101 JLINK_ReadMem (0x4002101C, 0x0004 Bytes, ...) -- CPU is running -- CPU_ReadMem(4 bytes @ 0x4002101C) -- Data:  06 00 02 00  returns 0x00 (0001ms, 0837ms total)
T04B4 007:102 JLINK_ReadMem (0x4002101C, 0x0004 Bytes, ...) -- CPU is running -- CPU_ReadMem(4 bytes @ 0x4002101C) -- Data:  06 00 02 00  returns 0x00 (0001ms, 0838ms total)
T04B4 007:103 JLINK_ReadMem (0x4002101C, 0x0004 Bytes, ...) -- CPU is running -- CPU_ReadMem(4 bytes @ 0x4002101C) -- Data:  06 00 02 00  returns 0x00 (0001ms, 0839ms total)
T04B4 007:105 JLINK_ReadMem (0x4002101C, 0x0004 Bytes, ...) -- CPU is running -- CPU_ReadMem(4 bytes @ 0x4002101C) -- Data:  06 00 02 00  returns 0x00 (0001ms, 0840ms total)
T04B4 007:106 JLINK_ReadMem (0x4002101C, 0x0004 Bytes, ...) -- CPU is running -- CPU_ReadMem(4 bytes @ 0x4002101C) -- Data:  06 00 02 00  returns 0x00 (0001ms, 0841ms total)
T04B4 007:107 JLINK_ReadMem (0x4002101C, 0x0004 Bytes, ...) -- CPU is running -- CPU_ReadMem(4 bytes @ 0x4002101C) -- Data:  06 00 02 00  returns 0x00 (0001ms, 0842ms total)
T04B4 007:108 JLINK_ReadMem (0x4002101C, 0x0004 Bytes, ...) -- CPU is running -- CPU_ReadMem(4 bytes @ 0x4002101C) -- Data:  06 00 02 00  returns 0x00 (0001ms, 0843ms total)
T04B4 007:109 JLINK_ReadMem (0x4002101C, 0x0004 Bytes, ...) -- CPU is running -- CPU_ReadMem(4 bytes @ 0x4002101C) -- Data:  06 00 02 00  returns 0x00 (0001ms, 0844ms total)
T04B4 007:110 JLINK_ReadMem (0x4002101C, 0x0004 Bytes, ...) -- CPU is running -- CPU_ReadMem(4 bytes @ 0x4002101C) -- Data:  06 00 02 00  returns 0x00 (0001ms, 0845ms total)
T04B4 007:111 JLINK_ReadMem (0x4002101C, 0x0004 Bytes, ...) -- CPU is running -- CPU_ReadMem(4 bytes @ 0x4002101C) -- Data:  06 00 02 00  returns 0x00 (0002ms, 0847ms total)
T04B4 007:113 JLINK_ReadMem (0x4002101C, 0x0004 Bytes, ...) -- CPU is running -- CPU_ReadMem(4 bytes @ 0x4002101C) -- Data:  06 00 02 00  returns 0x00 (0001ms, 0848ms total)
T04B4 007:114 JLINK_ReadMem (0x4002101C, 0x0004 Bytes, ...) -- CPU is running -- CPU_ReadMem(4 bytes @ 0x4002101C) -- Data:  06 00 02 00  returns 0x00 (0000ms, 0848ms total)
T04B4 007:114 JLINK_ReadMem (0x4002101C, 0x0004 Bytes, ...) -- CPU is running -- CPU_ReadMem(4 bytes @ 0x4002101C) -- Data:  06 00 02 00  returns 0x00 (0001ms, 0849ms total)
T04B4 007:115 JLINK_ReadMem (0x4002101C, 0x0004 Bytes, ...) -- CPU is running -- CPU_ReadMem(4 bytes @ 0x4002101C) -- Data:  06 00 02 00  returns 0x00 (0001ms, 0850ms total)
T04B4 007:116 JLINK_ReadMem (0x4002101C, 0x0004 Bytes, ...) -- CPU is running -- CPU_ReadMem(4 bytes @ 0x4002101C) -- Data:  06 00 02 00  returns 0x00 (0001ms, 0851ms total)
T04B4 007:117 JLINK_ReadMem (0x4002101C, 0x0004 Bytes, ...) -- CPU is running -- CPU_ReadMem(4 bytes @ 0x4002101C) -- Data:  06 00 02 00  returns 0x00 (0001ms, 0852ms total)
T04B4 007:118 JLINK_ReadMem (0x4002101C, 0x0004 Bytes, ...) -- CPU is running -- CPU_ReadMem(4 bytes @ 0x4002101C) -- Data:  06 00 02 00  returns 0x00 (0002ms, 0854ms total)
T04B4 007:120 JLINK_ReadMem (0x4002101C, 0x0004 Bytes, ...) -- CPU is running -- CPU_ReadMem(4 bytes @ 0x4002101C) -- Data:  06 00 02 00  returns 0x00 (0003ms, 0857ms total)
T04B4 007:123 JLINK_ReadMem (0x4002101C, 0x0004 Bytes, ...) -- CPU is running -- CPU_ReadMem(4 bytes @ 0x4002101C) -- Data:  06 00 02 00  returns 0x00 (0001ms, 0858ms total)
T04B4 007:124 JLINK_ReadMem (0x4002101C, 0x0004 Bytes, ...) -- CPU is running -- CPU_ReadMem(4 bytes @ 0x4002101C) -- Data:  06 00 02 00  returns 0x00 (0001ms, 0859ms total)
T04B4 007:125 JLINK_ReadMem (0x4002101C, 0x0004 Bytes, ...) -- CPU is running -- CPU_ReadMem(4 bytes @ 0x4002101C) -- Data:  06 00 02 00  returns 0x00 (0001ms, 0860ms total)
T04B4 007:126 JLINK_ReadMem (0x4002101C, 0x0004 Bytes, ...) -- CPU is running -- CPU_ReadMem(4 bytes @ 0x4002101C) -- Data:  06 00 02 00  returns 0x00 (0003ms, 0863ms total)
T0F8C 007:133 JLINK_IsHalted()  returns FALSE (0001ms, 0864ms total)
T0F8C 007:235 JLINK_IsHalted()  returns FALSE (0000ms, 0863ms total)
T0F8C 007:335 JLINK_IsHalted()  returns FALSE (0001ms, 0864ms total)
T0F8C 007:437 JLINK_IsHalted()  returns FALSE (0001ms, 0864ms total)
T0F8C 007:538 JLINK_IsHalted()  returns FALSE (0001ms, 0864ms total)
T0F8C 007:640 JLINK_ReadMemU32(0xE0001004, 0x0001 Items, ...) -- CPU is running -- CPU_ReadMem(4 bytes @ 0xE0001004) -- Data:  BA 8A 38 05  returns 0x01 (0001ms, 0864ms total)
T04B4 007:641 JLINK_ReadMem (0x200000B2, 0x0002 Bytes, ...) -- CPU is running -- CPU_ReadMem(2 bytes @ 0x200000B2) -- Data:  00 00  returns 0x00 (0001ms, 0865ms total)
T04B4 007:642 JLINK_ReadMem (0x40000C00, 0x002C Bytes, ...) -- CPU is running -- CPU_ReadMem(44 bytes @ 0x40000C00) -- Data:  00 00 00 00 00 00 00 00 00 00 00 00 00 00 00 00 ...  returns 0x00 (0001ms, 0866ms total)
T04B4 007:643 JLINK_ReadMem (0x40000C2C, 0x0004 Bytes, ...) -- CPU is running -- CPU_ReadMem(4 bytes @ 0x40000C2C) -- Data:  00 00 00 00  returns 0x00 (0002ms, 0868ms total)
T04B4 007:645 JLINK_ReadMem (0x40000C34, 0x000C Bytes, ...) -- CPU is running -- CPU_ReadMem(12 bytes @ 0x40000C34) -- Data:  00 00 00 00 00 00 00 00 00 00 00 00  returns 0x00 (0001ms, 0869ms total)
T04B4 007:646 JLINK_ReadMem (0x40000C40, 0x0004 Bytes, ...) -- CPU is running -- CPU_ReadMem(4 bytes @ 0x40000C40) -- Data:  00 00 00 00  returns 0x00 (0001ms, 0870ms total)
T04B4 007:647 JLINK_ReadMem (0x40000C48, 0x0004 Bytes, ...) -- CPU is running -- CPU_ReadMem(4 bytes @ 0x40000C48) -- Data:  00 00 00 00  returns 0x00 (0001ms, 0871ms total)
T04B4 007:648 JLINK_ReadMem (0x40000C4C, 0x0004 Bytes, ...) -- CPU is running -- CPU_ReadMem(4 bytes @ 0x40000C4C) -- Data:  00 00 00 00  returns 0x00 (0001ms, 0872ms total)
T04B4 007:649 JLINK_ReadMem (0x40021000, 0x0024 Bytes, ...) -- CPU is running -- CPU_ReadMem(36 bytes @ 0x40021000) -- Data:  83 4D 03 03 0A 84 1D 00 00 00 00 00 00 00 00 00 ...  returns 0x00 (0002ms, 0874ms total)
T04B4 007:651 JLINK_ReadMem (0x40021024, 0x0004 Bytes, ...) -- CPU is running -- CPU_ReadMem(4 bytes @ 0x40021024) -- Data:  00 00 00 1C  returns 0x00 (0001ms, 0875ms total)
T0F8C 007:652 JLINK_IsHalted()  returns FALSE (0001ms, 0876ms total)
T0F8C 007:753 JLINK_IsHalted()  returns FALSE (0001ms, 0876ms total)
T0F8C 007:855 JLINK_IsHalted()  returns FALSE (0001ms, 0876ms total)
T0F8C 007:956 JLINK_IsHalted()  returns FALSE (0001ms, 0876ms total)
T0F8C 008:058 JLINK_IsHalted()  returns FALSE (0001ms, 0876ms total)
T0F8C 008:159 JLINK_ReadMemU32(0xE0001004, 0x0001 Items, ...) -- CPU is running -- CPU_ReadMem(4 bytes @ 0xE0001004) -- Data:  70 6C 73 07  returns 0x01 (0001ms, 0876ms total)
T04B4 008:161 JLINK_ReadMem (0x200000B2, 0x0002 Bytes, ...) -- CPU is running -- CPU_ReadMem(2 bytes @ 0x200000B2) -- Data:  00 00  returns 0x00 (0002ms, 0878ms total)
T04B4 008:163 JLINK_ReadMem (0x40000C00, 0x002C Bytes, ...) -- CPU is running -- CPU_ReadMem(44 bytes @ 0x40000C00) -- Data:  00 00 00 00 00 00 00 00 00 00 00 00 00 00 00 00 ...  returns 0x00 (0001ms, 0879ms total)
T04B4 008:164 JLINK_ReadMem (0x40000C2C, 0x0004 Bytes, ...) -- CPU is running -- CPU_ReadMem(4 bytes @ 0x40000C2C) -- Data:  00 00 00 00  returns 0x00 (0001ms, 0880ms total)
T04B4 008:165 JLINK_ReadMem (0x40000C34, 0x000C Bytes, ...) -- CPU is running -- CPU_ReadMem(12 bytes @ 0x40000C34) -- Data:  00 00 00 00 00 00 00 00 00 00 00 00  returns 0x00 (0001ms, 0881ms total)
T04B4 008:166 JLINK_ReadMem (0x40000C40, 0x0004 Bytes, ...) -- CPU is running -- CPU_ReadMem(4 bytes @ 0x40000C40) -- Data:  00 00 00 00  returns 0x00 (0001ms, 0882ms total)
T04B4 008:167 JLINK_ReadMem (0x40000C48, 0x0004 Bytes, ...) -- CPU is running -- CPU_ReadMem(4 bytes @ 0x40000C48) -- Data:  00 00 00 00  returns 0x00 (0001ms, 0883ms total)
T04B4 008:168 JLINK_ReadMem (0x40000C4C, 0x0004 Bytes, ...) -- CPU is running -- CPU_ReadMem(4 bytes @ 0x40000C4C) -- Data:  00 00 00 00  returns 0x00 (0001ms, 0884ms total)
T04B4 008:170 JLINK_ReadMem (0x40021000, 0x0024 Bytes, ...) -- CPU is running -- CPU_ReadMem(36 bytes @ 0x40021000) -- Data:  83 4D 03 03 0A 84 1D 00 00 00 00 00 00 00 00 00 ...  returns 0x00 (0001ms, 0885ms total)
T04B4 008:171 JLINK_ReadMem (0x40021024, 0x0004 Bytes, ...) -- CPU is running -- CPU_ReadMem(4 bytes @ 0x40021024) -- Data:  00 00 00 1C  returns 0x00 (0001ms, 0886ms total)
T0F8C 008:172 JLINK_IsHalted()  returns FALSE (0001ms, 0887ms total)
T0F8C 008:274 JLINK_IsHalted()  returns FALSE (0001ms, 0887ms total)
T0F8C 008:375 JLINK_IsHalted()  returns FALSE (0001ms, 0887ms total)
T0F8C 008:477 JLINK_IsHalted()  returns FALSE (0001ms, 0887ms total)
T0F8C 008:578 JLINK_IsHalted()  returns FALSE (0001ms, 0887ms total)
T0F8C 008:680 JLINK_ReadMemU32(0xE0001004, 0x0001 Items, ...) -- CPU is running -- CPU_ReadMem(4 bytes @ 0xE0001004) -- Data:  DA 44 AF 09  returns 0x01 (0001ms, 0887ms total)
T04B4 008:681 JLINK_ReadMem (0x200000B2, 0x0002 Bytes, ...) -- CPU is running -- CPU_ReadMem(2 bytes @ 0x200000B2) -- Data:  00 00  returns 0x00 (0001ms, 0888ms total)
T04B4 008:682 JLINK_ReadMem (0x40000C00, 0x002C Bytes, ...) -- CPU is running -- CPU_ReadMem(44 bytes @ 0x40000C00) -- Data:  00 00 00 00 00 00 00 00 00 00 00 00 00 00 00 00 ...  returns 0x00 (0001ms, 0889ms total)
T04B4 008:683 JLINK_ReadMem (0x40000C2C, 0x0004 Bytes, ...) -- CPU is running -- CPU_ReadMem(4 bytes @ 0x40000C2C) -- Data:  00 00 00 00  returns 0x00 (0001ms, 0890ms total)
T04B4 008:684 JLINK_ReadMem (0x40000C34, 0x000C Bytes, ...) -- CPU is running -- CPU_ReadMem(12 bytes @ 0x40000C34) -- Data:  00 00 00 00 00 00 00 00 00 00 00 00  returns 0x00 (0002ms, 0892ms total)
T04B4 008:686 JLINK_ReadMem (0x40000C40, 0x0004 Bytes, ...) -- CPU is running -- CPU_ReadMem(4 bytes @ 0x40000C40) -- Data:  00 00 00 00  returns 0x00 (0001ms, 0893ms total)
T04B4 008:687 JLINK_ReadMem (0x40000C48, 0x0004 Bytes, ...) -- CPU is running -- CPU_ReadMem(4 bytes @ 0x40000C48) -- Data:  00 00 00 00  returns 0x00 (0001ms, 0894ms total)
T04B4 008:688 JLINK_ReadMem (0x40000C4C, 0x0004 Bytes, ...) -- CPU is running -- CPU_ReadMem(4 bytes @ 0x40000C4C) -- Data:  00 00 00 00  returns 0x00 (0001ms, 0895ms total)
T04B4 008:689 JLINK_ReadMem (0x40021000, 0x0024 Bytes, ...) -- CPU is running -- CPU_ReadMem(36 bytes @ 0x40021000) -- Data:  83 4D 03 03 0A 84 1D 00 00 00 00 00 00 00 00 00 ...  returns 0x00 (0001ms, 0896ms total)
T04B4 008:690 JLINK_ReadMem (0x40021024, 0x0004 Bytes, ...) -- CPU is running -- CPU_ReadMem(4 bytes @ 0x40021024) -- Data:  00 00 00 1C  returns 0x00 (0001ms, 0897ms total)
T0F8C 008:692 JLINK_IsHalted()  returns FALSE (0001ms, 0898ms total)
T0F8C 008:793 JLINK_IsHalted()  returns FALSE (0001ms, 0898ms total)
T0F8C 008:895 JLINK_IsHalted()  returns FALSE (0001ms, 0898ms total)
T0F8C 008:996 JLINK_IsHalted()  returns FALSE (0001ms, 0898ms total)
T0F8C 009:098 JLINK_IsHalted()  returns TRUE (0003ms, 0900ms total)
T0F8C 009:101 JLINK_Halt()  returns 0x00 (0000ms, 0897ms total)
T0F8C 009:101 JLINK_IsHalted()  returns TRUE (0000ms, 0897ms total)
T0F8C 009:101 JLINK_IsHalted()  returns TRUE (0000ms, 0897ms total)
T0F8C 009:101 JLINK_IsHalted()  returns TRUE (0000ms, 0897ms total)
T0F8C 009:101 JLINK_ReadReg(R15 (PC))  returns 0x08000302 (0000ms, 0897ms total)
T0F8C 009:101 JLINK_ReadReg(XPSR)  returns 0x61000000 (0001ms, 0898ms total)
T0F8C 009:102 JLINK_ClrBPEx(BPHandle = 0x00000005)  returns 0x00 (0000ms, 0898ms total)
T0F8C 009:102 JLINK_ClrBPEx(BPHandle = 0x00000006)  returns 0x00 (0000ms, 0898ms total)
T0F8C 009:102 JLINK_ClrBPEx(BPHandle = 0x00000007)  returns 0x00 (0000ms, 0898ms total)
T0F8C 009:102 JLINK_ReadMemU32(0xE000ED30, 0x0001 Items, ...) -- CPU_ReadMem(4 bytes @ 0xE000ED30) -- Data:  03 00 00 00  returns 0x01 (0001ms, 0899ms total)
T0F8C 009:103 JLINK_ReadMemU32(0xE0001028, 0x0001 Items, ...) -- CPU_ReadMem(4 bytes @ 0xE0001028) -- Data:  00 00 00 00  returns 0x01 (0001ms, 0900ms total)
T0F8C 009:104 JLINK_ReadMemU32(0xE0001038, 0x0001 Items, ...) -- CPU_ReadMem(4 bytes @ 0xE0001038) -- Data:  00 02 00 00  returns 0x01 (0001ms, 0901ms total)
T0F8C 009:105 JLINK_ReadMemU32(0xE0001048, 0x0001 Items, ...) -- CPU_ReadMem(4 bytes @ 0xE0001048) -- Data:  00 00 00 00  returns 0x01 (0001ms, 0902ms total)
T0F8C 009:106 JLINK_ReadMemU32(0xE0001058, 0x0001 Items, ...) -- CPU_ReadMem(4 bytes @ 0xE0001058) -- Data:  00 00 00 00  returns 0x01 (0001ms, 0903ms total)
T0F8C 009:107 JLINK_ReadReg(R0)  returns 0x00000000 (0000ms, 0903ms total)
T0F8C 009:107 JLINK_ReadReg(R1)  returns 0x00000004 (0000ms, 0903ms total)
T0F8C 009:107 JLINK_ReadReg(R2)  returns 0x00000000 (0001ms, 0904ms total)
T0F8C 009:110 JLINK_ReadReg(R3)  returns 0x00000000 (0000ms, 0906ms total)
T0F8C 009:110 JLINK_ReadReg(R4)  returns 0x00000000 (0000ms, 0906ms total)
T0F8C 009:110 JLINK_ReadReg(R5)  returns 0x20000508 (0000ms, 0906ms total)
T0F8C 009:110 JLINK_ReadReg(R6)  returns 0x00000000 (0000ms, 0906ms total)
T0F8C 009:110 JLINK_ReadReg(R7)  returns 0x00000000 (0000ms, 0906ms total)
T0F8C 009:110 JLINK_ReadReg(R8)  returns 0x00000000 (0000ms, 0906ms total)
T0F8C 009:110 JLINK_ReadReg(R9)  returns 0x00000001 (0000ms, 0906ms total)
T0F8C 009:110 JLINK_ReadReg(R10)  returns 0x0800BCB4 (0000ms, 0906ms total)
T0F8C 009:110 JLINK_ReadReg(R11)  returns 0x00000000 (0000ms, 0906ms total)
T0F8C 009:110 JLINK_ReadReg(R12)  returns 0x00B20799 (0000ms, 0906ms total)
T0F8C 009:110 JLINK_ReadReg(R13 (SP))  returns 0x20000B68 (0000ms, 0906ms total)
T0F8C 009:110 JLINK_ReadReg(R14)  returns 0x08005FBD (0000ms, 0906ms total)
T0F8C 009:110 JLINK_ReadReg(R15 (PC))  returns 0x08000302 (0000ms, 0906ms total)
T0F8C 009:110 JLINK_ReadReg(XPSR)  returns 0x61000000 (0001ms, 0907ms total)
T0F8C 009:111 JLINK_ReadReg(MSP)  returns 0x20000B68 (0000ms, 0907ms total)
T0F8C 009:111 JLINK_ReadReg(PSP)  returns 0x20000800 (0000ms, 0907ms total)
T0F8C 009:111 JLINK_ReadReg(CFBP)  returns 0x00000000 (0000ms, 0907ms total)
T04B4 009:111 JLINK_ReadMemU32(0xE0001004, 0x0001 Items, ...) -- CPU_ReadMem(4 bytes @ 0xE0001004) -- Data:  C7 82 6D 0B  returns 0x01 (0002ms, 0909ms total)
T04B4 009:113 JLINK_ReadMem (0x200000B2, 0x0002 Bytes, ...) -- CPU_ReadMem(64 bytes @ 0x20000080) -- Updating C cache (64 bytes @ 0x20000080) -- Read from C cache (2 bytes @ 0x200000B2) -- Data:  00 00  returns 0x00 (0001ms, 0910ms total)
T04B4 009:114 JLINK_ReadMem (0x40000C00, 0x002C Bytes, ...) -- CPU_ReadMem(44 bytes @ 0x40000C00) -- Data:  00 00 00 00 00 00 00 00 00 00 00 00 00 00 00 00 ...  returns 0x00 (0001ms, 0911ms total)
T04B4 009:115 JLINK_ReadMem (0x40000C2C, 0x0004 Bytes, ...) -- CPU_ReadMem(4 bytes @ 0x40000C2C) -- Data:  00 00 00 00  returns 0x00 (0001ms, 0912ms total)
T04B4 009:116 JLINK_ReadMem (0x40000C34, 0x000C Bytes, ...) -- CPU_ReadMem(12 bytes @ 0x40000C34) -- Data:  00 00 00 00 00 00 00 00 00 00 00 00  returns 0x00 (0001ms, 0913ms total)
T04B4 009:117 JLINK_ReadMem (0x40000C40, 0x0004 Bytes, ...) -- CPU_ReadMem(4 bytes @ 0x40000C40) -- Data:  00 00 00 00  returns 0x00 (0001ms, 0914ms total)
T04B4 009:118 JLINK_ReadMem (0x40000C48, 0x0004 Bytes, ...) -- CPU_ReadMem(4 bytes @ 0x40000C48) -- Data:  00 00 00 00  returns 0x00 (0001ms, 0915ms total)
T04B4 009:119 JLINK_ReadMem (0x40000C4C, 0x0004 Bytes, ...) -- CPU_ReadMem(4 bytes @ 0x40000C4C) -- Data:  00 00 00 00  returns 0x00 (0001ms, 0916ms total)
T04B4 009:121 JLINK_ReadMem (0x40021000, 0x0024 Bytes, ...) -- CPU_ReadMem(36 bytes @ 0x40021000) -- Data:  83 4D 03 03 0A 84 1D 00 00 00 00 00 00 00 00 00 ...  returns 0x00 (0001ms, 0917ms total)
T04B4 009:122 JLINK_ReadMem (0x40021024, 0x0004 Bytes, ...) -- CPU_ReadMem(4 bytes @ 0x40021024) -- Data:  00 00 00 1C  returns 0x00 (0001ms, 0918ms total)
